#   Hz   S  RI   R   50
!
0.000000e+00 1.973113e-02 0.000000e+00 9.804690e-01 0.000000e+00 9.804690e-01 0.000000e+00 1.973113e-02 0.000000e+00
2.750000e+08 1.973736e-02 3.434785e-05 9.804134e-01 -9.893868e-03 9.804134e-01 -9.893868e-03 1.973736e-02 3.434785e-05
5.500000e+08 1.975604e-02 6.789067e-05 9.802468e-01 -1.978590e-02 9.802468e-01 -1.978590e-02 1.975604e-02 6.789067e-05
8.250000e+08 1.978708e-02 9.982734e-05 9.799692e-01 -2.967427e-02 9.799692e-01 -2.967427e-02 1.978708e-02 9.982734e-05
1.100000e+09 1.983036e-02 1.293645e-04 9.795807e-01 -3.955715e-02 9.795807e-01 -3.955715e-02 1.983036e-02 1.293645e-04
1.375000e+09 1.988568e-02 1.557205e-04 9.790816e-01 -4.943273e-02 9.790816e-01 -4.943273e-02 1.988568e-02 1.557205e-04
1.650000e+09 1.995283e-02 1.781287e-04 9.784722e-01 -5.929922e-02 9.784722e-01 -5.929922e-02 1.995283e-02 1.781287e-04
1.925000e+09 2.003153e-02 1.958415e-04 9.777529e-01 -6.915484e-02 9.777529e-01 -6.915484e-02 2.003153e-02 1.958415e-04
2.200000e+09 2.012144e-02 2.081337e-04 9.769239e-01 -7.899785e-02 9.769239e-01 -7.899785e-02 2.012144e-02 2.081337e-04
2.475000e+09 2.022220e-02 2.143052e-04 9.759859e-01 -8.882653e-02 9.759859e-01 -8.882653e-02 2.022220e-02 2.143052e-04
2.750000e+09 2.033340e-02 2.136848e-04 9.749393e-01 -9.863918e-02 9.749393e-01 -9.863918e-02 2.033340e-02 2.136848e-04
3.025000e+09 2.045458e-02 2.056323e-04 9.737846e-01 -1.084342e-01 9.737846e-01 -1.084342e-01 2.045458e-02 2.056323e-04
3.300000e+09 2.058525e-02 1.895415e-04 9.725226e-01 -1.182098e-01 9.725226e-01 -1.182098e-01 2.058525e-02 1.895415e-04
3.575000e+09 2.072490e-02 1.648421e-04 9.711538e-01 -1.279646e-01 9.711538e-01 -1.279646e-01 2.072490e-02 1.648421e-04
3.850000e+09 2.087298e-02 1.310020e-04 9.696790e-01 -1.376970e-01 9.696790e-01 -1.376970e-01 2.087298e-02 1.310020e-04
4.125000e+09 2.102889e-02 8.752859e-05 9.680989e-01 -1.474054e-01 9.680989e-01 -1.474054e-01 2.102889e-02 8.752859e-05
4.400000e+09 2.119203e-02 3.397067e-05 9.664142e-01 -1.570885e-01 9.664142e-01 -1.570885e-01 2.119203e-02 3.397067e-05
4.675000e+09 2.136178e-02 -3.008086e-05 9.646259e-01 -1.667447e-01 9.646259e-01 -1.667447e-01 2.136178e-02 -3.008086e-05
4.950000e+09 2.153748e-02 -1.049920e-04 9.627347e-01 -1.763729e-01 9.627347e-01 -1.763729e-01 2.153748e-02 -1.049920e-04
5.225000e+09 2.171849e-02 -1.910851e-04 9.607414e-01 -1.859716e-01 9.607414e-01 -1.859716e-01 2.171849e-02 -1.910851e-04
5.500000e+09 2.190412e-02 -2.886386e-04 9.586471e-01 -1.955396e-01 9.586471e-01 -1.955396e-01 2.190412e-02 -2.886386e-04
5.775000e+09 2.209371e-02 -3.978873e-04 9.564526e-01 -2.050756e-01 9.564526e-01 -2.050756e-01 2.209371e-02 -3.978873e-04
6.050000e+09 2.228655e-02 -5.190220e-04 9.541587e-01 -2.145785e-01 9.541587e-01 -2.145785e-01 2.228655e-02 -5.190220e-04
6.325000e+09 2.248196e-02 -6.521908e-04 9.517665e-01 -2.240473e-01 9.517665e-01 -2.240473e-01 2.248196e-02 -6.521908e-04
6.600000e+09 2.267926e-02 -7.974992e-04 9.492769e-01 -2.334807e-01 9.492769e-01 -2.334807e-01 2.267926e-02 -7.974992e-04
6.875000e+09 2.287777e-02 -9.550112e-04 9.466908e-01 -2.428778e-01 9.466908e-01 -2.428778e-01 2.287777e-02 -9.550112e-04
7.150000e+09 2.307679e-02 -1.124751e-03 9.440091e-01 -2.522376e-01 9.440091e-01 -2.522376e-01 2.307679e-02 -1.124751e-03
7.425000e+09 2.327568e-02 -1.306702e-03 9.412329e-01 -2.615591e-01 9.412329e-01 -2.615591e-01 2.327568e-02 -1.306702e-03
7.700000e+09 2.347376e-02 -1.500812e-03 9.383630e-01 -2.708415e-01 9.383630e-01 -2.708415e-01 2.347376e-02 -1.500812e-03
7.975000e+09 2.367040e-02 -1.706993e-03 9.354005e-01 -2.800838e-01 9.354005e-01 -2.800838e-01 2.367040e-02 -1.706993e-03
8.250000e+09 2.386497e-02 -1.925120e-03 9.323462e-01 -2.892853e-01 9.323462e-01 -2.892853e-01 2.386497e-02 -1.925120e-03
8.525000e+09 2.405684e-02 -2.155037e-03 9.292011e-01 -2.984452e-01 9.292011e-01 -2.984452e-01 2.405684e-02 -2.155037e-03
8.800000e+09 2.424543e-02 -2.396558e-03 9.259661e-01 -3.075628e-01 9.259661e-01 -3.075628e-01 2.424543e-02 -2.396558e-03
9.075000e+09 2.443017e-02 -2.649467e-03 9.226420e-01 -3.166372e-01 9.226420e-01 -3.166372e-01 2.443017e-02 -2.649467e-03
9.350000e+09 2.461049e-02 -2.913521e-03 9.192299e-01 -3.256679e-01 9.192299e-01 -3.256679e-01 2.461049e-02 -2.913521e-03
9.625000e+09 2.478587e-02 -3.188453e-03 9.157306e-01 -3.346541e-01 9.157306e-01 -3.346541e-01 2.478587e-02 -3.188453e-03
9.900000e+09 2.495579e-02 -3.473970e-03 9.121449e-01 -3.435953e-01 9.121449e-01 -3.435953e-01 2.495579e-02 -3.473970e-03
1.017500e+10 2.511978e-02 -3.769763e-03 9.084737e-01 -3.524908e-01 9.084737e-01 -3.524908e-01 2.511978e-02 -3.769763e-03
1.045000e+10 2.527738e-02 -4.075498e-03 9.047178e-01 -3.613400e-01 9.047178e-01 -3.613400e-01 2.527738e-02 -4.075498e-03
1.072500e+10 2.542814e-02 -4.390828e-03 9.008781e-01 -3.701425e-01 9.008781e-01 -3.701425e-01 2.542814e-02 -4.390828e-03
1.100000e+10 2.557166e-02 -4.715388e-03 8.969553e-01 -3.788976e-01 8.969553e-01 -3.788976e-01 2.557166e-02 -4.715388e-03
1.127500e+10 2.570755e-02 -5.048802e-03 8.929502e-01 -3.876048e-01 8.929502e-01 -3.876048e-01 2.570755e-02 -5.048802e-03
1.155000e+10 2.583545e-02 -5.390678e-03 8.888637e-01 -3.962637e-01 8.888637e-01 -3.962637e-01 2.583545e-02 -5.390678e-03
1.182500e+10 2.595502e-02 -5.740619e-03 8.846964e-01 -4.048737e-01 8.846964e-01 -4.048737e-01 2.595502e-02 -5.740619e-03
1.210000e+10 2.606596e-02 -6.098215e-03 8.804492e-01 -4.134343e-01 8.804492e-01 -4.134343e-01 2.606596e-02 -6.098215e-03
1.237500e+10 2.616798e-02 -6.463051e-03 8.761226e-01 -4.219451e-01 8.761226e-01 -4.219451e-01 2.616798e-02 -6.463051e-03
1.265000e+10 2.626082e-02 -6.834706e-03 8.717174e-01 -4.304057e-01 8.717174e-01 -4.304057e-01 2.626082e-02 -6.834706e-03
1.292500e+10 2.634424e-02 -7.212755e-03 8.672344e-01 -4.388154e-01 8.672344e-01 -4.388154e-01 2.634424e-02 -7.212755e-03
1.320000e+10 2.641803e-02 -7.596771e-03 8.626741e-01 -4.471740e-01 8.626741e-01 -4.471740e-01 2.641803e-02 -7.596771e-03
1.347500e+10 2.648199e-02 -7.986324e-03 8.580373e-01 -4.554810e-01 8.580373e-01 -4.554810e-01 2.648199e-02 -7.986324e-03
1.375000e+10 2.653597e-02 -8.380985e-03 8.533245e-01 -4.637359e-01 8.533245e-01 -4.637359e-01 2.653597e-02 -8.380985e-03
1.402500e+10 2.657980e-02 -8.780324e-03 8.485364e-01 -4.719384e-01 8.485364e-01 -4.719384e-01 2.657980e-02 -8.780324e-03
1.430000e+10 2.661337e-02 -9.183914e-03 8.436737e-01 -4.800879e-01 8.436737e-01 -4.800879e-01 2.661337e-02 -9.183914e-03
1.457500e+10 2.663657e-02 -9.591330e-03 8.387369e-01 -4.881840e-01 8.387369e-01 -4.881840e-01 2.663657e-02 -9.591330e-03
1.485000e+10 2.664931e-02 -1.000215e-02 8.337266e-01 -4.962264e-01 8.337266e-01 -4.962264e-01 2.664931e-02 -1.000215e-02
1.512500e+10 2.665153e-02 -1.041596e-02 8.286434e-01 -5.042146e-01 8.286434e-01 -5.042146e-01 2.665153e-02 -1.041596e-02
1.540000e+10 2.664318e-02 -1.083235e-02 8.234880e-01 -5.121482e-01 8.234880e-01 -5.121482e-01 2.664318e-02 -1.083235e-02
1.567500e+10 2.662423e-02 -1.125090e-02 8.182607e-01 -5.200267e-01 8.182607e-01 -5.200267e-01 2.662423e-02 -1.125090e-02
1.595000e+10 2.659465e-02 -1.167123e-02 8.129623e-01 -5.278497e-01 8.129623e-01 -5.278497e-01 2.659465e-02 -1.167123e-02
1.622500e+10 2.655446e-02 -1.209293e-02 8.075933e-01 -5.356168e-01 8.075933e-01 -5.356168e-01 2.655446e-02 -1.209293e-02
1.650000e+10 2.650366e-02 -1.251562e-02 8.021542e-01 -5.433275e-01 8.021542e-01 -5.433275e-01 2.650366e-02 -1.251562e-02
1.677500e+10 2.644230e-02 -1.293892e-02 7.966455e-01 -5.509815e-01 7.966455e-01 -5.509815e-01 2.644230e-02 -1.293892e-02
1.705000e+10 2.637040e-02 -1.336247e-02 7.910678e-01 -5.585782e-01 7.910678e-01 -5.585782e-01 2.637040e-02 -1.336247e-02
1.732500e+10 2.628803e-02 -1.378589e-02 7.854217e-01 -5.661173e-01 7.854217e-01 -5.661173e-01 2.628803e-02 -1.378589e-02
1.760000e+10 2.619526e-02 -1.420884e-02 7.797076e-01 -5.735983e-01 7.797076e-01 -5.735983e-01 2.619526e-02 -1.420884e-02
1.787500e+10 2.609217e-02 -1.463097e-02 7.739261e-01 -5.810207e-01 7.739261e-01 -5.810207e-01 2.609217e-02 -1.463097e-02
1.815000e+10 2.597884e-02 -1.505194e-02 7.680777e-01 -5.883841e-01 7.680777e-01 -5.883841e-01 2.597884e-02 -1.505194e-02
1.842500e+10 2.585538e-02 -1.547144e-02 7.621629e-01 -5.956880e-01 7.621629e-01 -5.956880e-01 2.585538e-02 -1.547144e-02
1.870000e+10 2.572191e-02 -1.588913e-02 7.561822e-01 -6.029320e-01 7.561822e-01 -6.029320e-01 2.572191e-02 -1.588913e-02
1.897500e+10 2.557853e-02 -1.630471e-02 7.501362e-01 -6.101156e-01 7.501362e-01 -6.101156e-01 2.557853e-02 -1.630471e-02
1.925000e+10 2.542538e-02 -1.671789e-02 7.440254e-01 -6.172384e-01 7.440254e-01 -6.172384e-01 2.542538e-02 -1.671789e-02
1.952500e+10 2.526259e-02 -1.712838e-02 7.378504e-01 -6.242999e-01 7.378504e-01 -6.242999e-01 2.526259e-02 -1.712838e-02
1.980000e+10 2.509031e-02 -1.753588e-02 7.316115e-01 -6.312996e-01 7.316115e-01 -6.312996e-01 2.509031e-02 -1.753588e-02
2.007500e+10 2.490868e-02 -1.794014e-02 7.253094e-01 -6.382370e-01 7.253094e-01 -6.382370e-01 2.490868e-02 -1.794014e-02
2.035000e+10 2.471786e-02 -1.834090e-02 7.189446e-01 -6.451117e-01 7.189446e-01 -6.451117e-01 2.471786e-02 -1.834090e-02
2.062500e+10 2.451802e-02 -1.873789e-02 7.125176e-01 -6.519232e-01 7.125176e-01 -6.519232e-01 2.451802e-02 -1.873789e-02
2.090000e+10 2.430931e-02 -1.913088e-02 7.060290e-01 -6.586710e-01 7.060290e-01 -6.586710e-01 2.430931e-02 -1.913088e-02
2.117500e+10 2.409192e-02 -1.951964e-02 6.994792e-01 -6.653547e-01 6.994792e-01 -6.653547e-01 2.409192e-02 -1.951964e-02
2.145000e+10 2.386601e-02 -1.990393e-02 6.928689e-01 -6.719737e-01 6.928689e-01 -6.719737e-01 2.386601e-02 -1.990393e-02
2.172500e+10 2.363176e-02 -2.028355e-02 6.861985e-01 -6.785276e-01 6.861985e-01 -6.785276e-01 2.363176e-02 -2.028355e-02
2.200000e+10 2.338936e-02 -2.065829e-02 6.794687e-01 -6.850159e-01 6.794687e-01 -6.850159e-01 2.338936e-02 -2.065829e-02
2.227500e+10 2.313900e-02 -2.102794e-02 6.726799e-01 -6.914380e-01 6.726799e-01 -6.914380e-01 2.313900e-02 -2.102794e-02
2.255000e+10 2.288086e-02 -2.139233e-02 6.658328e-01 -6.977936e-01 6.658328e-01 -6.977936e-01 2.288086e-02 -2.139233e-02
2.282500e+10 2.261514e-02 -2.175126e-02 6.589279e-01 -7.040822e-01 6.589279e-01 -7.040822e-01 2.261514e-02 -2.175126e-02
2.310000e+10 2.234202e-02 -2.210457e-02 6.519657e-01 -7.103031e-01 6.519657e-01 -7.103031e-01 2.234202e-02 -2.210457e-02
2.337500e+10 2.206172e-02 -2.245209e-02 6.449469e-01 -7.164560e-01 6.449469e-01 -7.164560e-01 2.206172e-02 -2.245209e-02
2.365000e+10 2.177441e-02 -2.279366e-02 6.378720e-01 -7.225404e-01 6.378720e-01 -7.225404e-01 2.177441e-02 -2.279366e-02
2.392500e+10 2.148031e-02 -2.312913e-02 6.307416e-01 -7.285558e-01 6.307416e-01 -7.285558e-01 2.148031e-02 -2.312913e-02
2.420000e+10 2.117960e-02 -2.345837e-02 6.235563e-01 -7.345017e-01 6.235563e-01 -7.345017e-01 2.117960e-02 -2.345837e-02
2.447500e+10 2.087251e-02 -2.378124e-02 6.163167e-01 -7.403776e-01 6.163167e-01 -7.403776e-01 2.087251e-02 -2.378124e-02
2.475000e+10 2.055921e-02 -2.409760e-02 6.090235e-01 -7.461830e-01 6.090235e-01 -7.461830e-01 2.055921e-02 -2.409760e-02
2.502500e+10 2.023992e-02 -2.440736e-02 6.016771e-01 -7.519175e-01 6.016771e-01 -7.519175e-01 2.023992e-02 -2.440736e-02
2.530000e+10 1.991484e-02 -2.471037e-02 5.942783e-01 -7.575806e-01 5.942783e-01 -7.575806e-01 1.991484e-02 -2.471037e-02
2.557500e+10 1.958417e-02 -2.500656e-02 5.868277e-01 -7.631718e-01 5.868277e-01 -7.631718e-01 1.958417e-02 -2.500656e-02
2.585000e+10 1.924812e-02 -2.529581e-02 5.793258e-01 -7.686906e-01 5.793258e-01 -7.686906e-01 1.924812e-02 -2.529581e-02
2.612500e+10 1.890688e-02 -2.557803e-02 5.717734e-01 -7.741366e-01 5.717734e-01 -7.741366e-01 1.890688e-02 -2.557803e-02
2.640000e+10 1.856066e-02 -2.585313e-02 5.641711e-01 -7.795094e-01 5.641711e-01 -7.795094e-01 1.856066e-02 -2.585313e-02
2.667500e+10 1.820966e-02 -2.612104e-02 5.565195e-01 -7.848083e-01 5.565195e-01 -7.848083e-01 1.820966e-02 -2.612104e-02
2.695000e+10 1.785408e-02 -2.638168e-02 5.488192e-01 -7.900331e-01 5.488192e-01 -7.900331e-01 1.785408e-02 -2.638168e-02
2.722500e+10 1.749411e-02 -2.663499e-02 5.410711e-01 -7.951832e-01 5.410711e-01 -7.951832e-01 1.749411e-02 -2.663499e-02
2.750000e+10 1.712997e-02 -2.688089e-02 5.332756e-01 -8.002582e-01 5.332756e-01 -8.002582e-01 1.712997e-02 -2.688089e-02
2.777500e+10 1.676184e-02 -2.711934e-02 5.254336e-01 -8.052576e-01 5.254336e-01 -8.052576e-01 1.676184e-02 -2.711934e-02
2.805000e+10 1.638992e-02 -2.735028e-02 5.175456e-01 -8.101810e-01 5.175456e-01 -8.101810e-01 1.638992e-02 -2.735028e-02
2.832500e+10 1.601442e-02 -2.757367e-02 5.096124e-01 -8.150281e-01 5.096124e-01 -8.150281e-01 1.601442e-02 -2.757367e-02
2.860000e+10 1.563551e-02 -2.778946e-02 5.016347e-01 -8.197982e-01 5.016347e-01 -8.197982e-01 1.563551e-02 -2.778946e-02
2.887500e+10 1.525340e-02 -2.799762e-02 4.936132e-01 -8.244911e-01 4.936132e-01 -8.244911e-01 1.525340e-02 -2.799762e-02
2.915000e+10 1.486828e-02 -2.819812e-02 4.855485e-01 -8.291062e-01 4.855485e-01 -8.291062e-01 1.486828e-02 -2.819812e-02
2.942500e+10 1.448033e-02 -2.839092e-02 4.774415e-01 -8.336433e-01 4.774415e-01 -8.336433e-01 1.448033e-02 -2.839092e-02
2.970000e+10 1.408975e-02 -2.857602e-02 4.692927e-01 -8.381018e-01 4.692927e-01 -8.381018e-01 1.408975e-02 -2.857602e-02
2.997500e+10 1.369671e-02 -2.875339e-02 4.611031e-01 -8.424814e-01 4.611031e-01 -8.424814e-01 1.369671e-02 -2.875339e-02
3.025000e+10 1.330142e-02 -2.892302e-02 4.528732e-01 -8.467816e-01 4.528732e-01 -8.467816e-01 1.330142e-02 -2.892302e-02
3.052500e+10 1.290404e-02 -2.908489e-02 4.446038e-01 -8.510022e-01 4.446038e-01 -8.510022e-01 1.290404e-02 -2.908489e-02
3.080000e+10 1.250476e-02 -2.923901e-02 4.362957e-01 -8.551427e-01 4.362957e-01 -8.551427e-01 1.250476e-02 -2.923901e-02
3.107500e+10 1.210377e-02 -2.938538e-02 4.279496e-01 -8.592027e-01 4.279496e-01 -8.592027e-01 1.210377e-02 -2.938538e-02
3.135000e+10 1.170123e-02 -2.952399e-02 4.195663e-01 -8.631819e-01 4.195663e-01 -8.631819e-01 1.170123e-02 -2.952399e-02
3.162500e+10 1.129732e-02 -2.965486e-02 4.111465e-01 -8.670799e-01 4.111465e-01 -8.670799e-01 1.129732e-02 -2.965486e-02
3.190000e+10 1.089222e-02 -2.977799e-02 4.026910e-01 -8.708964e-01 4.026910e-01 -8.708964e-01 1.089222e-02 -2.977799e-02
3.217500e+10 1.048609e-02 -2.989340e-02 3.942006e-01 -8.746310e-01 3.942006e-01 -8.746310e-01 1.048609e-02 -2.989340e-02
3.245000e+10 1.007911e-02 -3.000111e-02 3.856761e-01 -8.782833e-01 3.856761e-01 -8.782833e-01 1.007911e-02 -3.000111e-02
3.272500e+10 9.671448e-03 -3.010114e-02 3.771181e-01 -8.818531e-01 3.771181e-01 -8.818531e-01 9.671448e-03 -3.010114e-02
3.300000e+10 9.263263e-03 -3.019351e-02 3.685276e-01 -8.853400e-01 3.685276e-01 -8.853400e-01 9.263263e-03 -3.019351e-02
3.327500e+10 8.854719e-03 -3.027825e-02 3.599053e-01 -8.887437e-01 3.599053e-01 -8.887437e-01 8.854719e-03 -3.027825e-02
3.355000e+10 8.445979e-03 -3.035540e-02 3.512520e-01 -8.920639e-01 3.512520e-01 -8.920639e-01 8.445979e-03 -3.035540e-02
3.382500e+10 8.037201e-03 -3.042497e-02 3.425685e-01 -8.953003e-01 3.425685e-01 -8.953003e-01 8.037201e-03 -3.042497e-02
3.410000e+10 7.628540e-03 -3.048702e-02 3.338556e-01 -8.984526e-01 3.338556e-01 -8.984526e-01 7.628540e-03 -3.048702e-02
3.437500e+10 7.220153e-03 -3.054158e-02 3.251141e-01 -9.015205e-01 3.251141e-01 -9.015205e-01 7.220153e-03 -3.054158e-02
3.465000e+10 6.812191e-03 -3.058870e-02 3.163448e-01 -9.045038e-01 3.163448e-01 -9.045038e-01 6.812191e-03 -3.058870e-02
3.492500e+10 6.404803e-03 -3.062841e-02 3.075485e-01 -9.074022e-01 3.075485e-01 -9.074022e-01 6.404803e-03 -3.062841e-02
3.520000e+10 5.998139e-03 -3.066076e-02 2.987261e-01 -9.102154e-01 2.987261e-01 -9.102154e-01 5.998139e-03 -3.066076e-02
3.547500e+10 5.592342e-03 -3.068582e-02 2.898783e-01 -9.129431e-01 2.898783e-01 -9.129431e-01 5.592342e-03 -3.068582e-02
3.575000e+10 5.187556e-03 -3.070361e-02 2.810061e-01 -9.155852e-01 2.810061e-01 -9.155852e-01 5.187556e-03 -3.070361e-02
3.602500e+10 4.783923e-03 -3.071422e-02 2.721102e-01 -9.181414e-01 2.721102e-01 -9.181414e-01 4.783923e-03 -3.071422e-02
3.630000e+10 4.381580e-03 -3.071768e-02 2.631914e-01 -9.206115e-01 2.631914e-01 -9.206115e-01 4.381580e-03 -3.071768e-02
3.657500e+10 3.980665e-03 -3.071406e-02 2.542506e-01 -9.229952e-01 2.542506e-01 -9.229952e-01 3.980665e-03 -3.071406e-02
3.685000e+10 3.581312e-03 -3.070341e-02 2.452887e-01 -9.252924e-01 2.452887e-01 -9.252924e-01 3.581312e-03 -3.070341e-02
3.712500e+10 3.183652e-03 -3.068582e-02 2.363063e-01 -9.275029e-01 2.363063e-01 -9.275029e-01 3.183652e-03 -3.068582e-02
3.740000e+10 2.787815e-03 -3.066133e-02 2.273045e-01 -9.296264e-01 2.273045e-01 -9.296264e-01 2.787815e-03 -3.066133e-02
3.767500e+10 2.393928e-03 -3.063001e-02 2.182841e-01 -9.316628e-01 2.182841e-01 -9.316628e-01 2.393928e-03 -3.063001e-02
3.795000e+10 2.002117e-03 -3.059195e-02 2.092458e-01 -9.336119e-01 2.092458e-01 -9.336119e-01 2.002117e-03 -3.059195e-02
3.822500e+10 1.612504e-03 -3.054720e-02 2.001905e-01 -9.354736e-01 2.001905e-01 -9.354736e-01 1.612504e-03 -3.054720e-02
3.850000e+10 1.225209e-03 -3.049584e-02 1.911192e-01 -9.372477e-01 1.911192e-01 -9.372477e-01 1.225209e-03 -3.049584e-02
3.877500e+10 8.403521e-04 -3.043794e-02 1.820326e-01 -9.389341e-01 1.820326e-01 -9.389341e-01 8.403521e-04 -3.043794e-02
3.905000e+10 4.580479e-04 -3.037358e-02 1.729315e-01 -9.405325e-01 1.729315e-01 -9.405325e-01 4.580479e-04 -3.037358e-02
3.932500e+10 7.841038e-05 -3.030284e-02 1.638169e-01 -9.420430e-01 1.638169e-01 -9.420430e-01 7.841038e-05 -3.030284e-02
3.960000e+10 -2.984490e-04 -3.022580e-02 1.546896e-01 -9.434654e-01 1.546896e-01 -9.434654e-01 -2.984490e-04 -3.022580e-02
3.987500e+10 -6.724209e-04 -3.014254e-02 1.455504e-01 -9.447995e-01 1.455504e-01 -9.447995e-01 -6.724209e-04 -3.014254e-02
4.015000e+10 -1.043399e-03 -3.005314e-02 1.364003e-01 -9.460453e-01 1.364003e-01 -9.460453e-01 -1.043399e-03 -3.005314e-02
4.042500e+10 -1.411277e-03 -2.995769e-02 1.272400e-01 -9.472027e-01 1.272400e-01 -9.472027e-01 -1.411277e-03 -2.995769e-02
4.070000e+10 -1.775954e-03 -2.985627e-02 1.180704e-01 -9.482716e-01 1.180704e-01 -9.482716e-01 -1.775954e-03 -2.985627e-02
4.097500e+10 -2.137330e-03 -2.974896e-02 1.088924e-01 -9.492520e-01 1.088924e-01 -9.492520e-01 -2.137330e-03 -2.974896e-02
4.125000e+10 -2.495306e-03 -2.963586e-02 9.970685e-02 -9.501437e-01 9.970685e-02 -9.501437e-01 -2.495306e-03 -2.963586e-02
4.152500e+10 -2.849786e-03 -2.951705e-02 9.051459e-02 -9.509467e-01 9.051459e-02 -9.509467e-01 -2.849786e-03 -2.951705e-02
4.180000e+10 -3.200678e-03 -2.939262e-02 8.131649e-02 -9.516610e-01 8.131649e-02 -9.516610e-01 -3.200678e-03 -2.939262e-02
4.207500e+10 -3.547889e-03 -2.926267e-02 7.211341e-02 -9.522865e-01 7.211341e-02 -9.522865e-01 -3.547889e-03 -2.926267e-02
4.235000e+10 -3.891331e-03 -2.912729e-02 6.290621e-02 -9.528232e-01 6.290621e-02 -9.528232e-01 -3.891331e-03 -2.912729e-02
4.262500e+10 -4.230917e-03 -2.898656e-02 5.369574e-02 -9.532711e-01 5.369574e-02 -9.532711e-01 -4.230917e-03 -2.898656e-02
4.290000e+10 -4.566562e-03 -2.884059e-02 4.448288e-02 -9.536301e-01 4.448288e-02 -9.536301e-01 -4.566562e-03 -2.884059e-02
4.317500e+10 -4.898184e-03 -2.868948e-02 3.526847e-02 -9.539004e-01 3.526847e-02 -9.539004e-01 -4.898184e-03 -2.868948e-02
4.345000e+10 -5.225701e-03 -2.853330e-02 2.605339e-02 -9.540818e-01 2.605339e-02 -9.540818e-01 -5.225701e-03 -2.853330e-02
4.372500e+10 -5.549037e-03 -2.837218e-02 1.683848e-02 -9.541744e-01 1.683848e-02 -9.541744e-01 -5.549037e-03 -2.837218e-02
4.400000e+10 -5.868116e-03 -2.820619e-02 7.624597e-03 -9.541783e-01 7.624597e-03 -9.541783e-01 -5.868116e-03 -2.820619e-02
4.427500e+10 -6.182862e-03 -2.803544e-02 -1.587389e-03 -9.540933e-01 -1.587389e-03 -9.540933e-01 -6.182862e-03 -2.803544e-02
4.455000e+10 -6.493205e-03 -2.786003e-02 -1.079663e-02 -9.539197e-01 -1.079663e-02 -9.539197e-01 -6.493205e-03 -2.786003e-02
4.482500e+10 -6.799075e-03 -2.768006e-02 -2.000227e-02 -9.536575e-01 -2.000227e-02 -9.536575e-01 -6.799075e-03 -2.768006e-02
